T43E0 000:023.481   SEGGER J-Link V7.88j Log File
T43E0 000:023.634   DLL Compiled: Jun 28 2023 13:33:44
T43E0 000:023.639   Logging started @ 2025-05-08 06:41
T43E0 000:023.643 - 23.645ms
T43E0 000:023.653 JLINK_SetWarnOutHandler(...)
T43E0 000:023.658 - 0.007ms
T43E0 000:023.663 JLINK_OpenEx(...)
T43E0 000:025.530   Firmware: J-Link V9 compiled May  7 2021 16:26:12
T43E0 000:026.273   Firmware: J-Link V9 compiled May  7 2021 16:26:12
T43E0 000:026.478   Decompressing FW timestamp took 152 us
T43E0 000:033.403   Hardware: V9.20
T43E0 000:033.426   S/N: 4294967295
T43E0 000:033.432   OEM: SEGGER
T43E0 000:033.440   Feature(s): RDI, GDB, FlashDL, FlashBP, JFlash
T43E0 000:033.954   Bootloader: (Could not read)
T43E0 000:034.581   TELNET listener socket opened on port 19021
T43E0 000:034.698   WEBSRV WEBSRV_Init(): Starting webserver thread(s)
T43E0 000:034.822   WEBSRV Webserver running on local port 19080
T43E0 000:034.910   Looking for J-Link GUI Server exe at: D:\InstallFiles\Keil_v5\ARM\Segger\JLinkGUIServer.exe
T43E0 000:035.013   Looking for J-Link GUI Server exe at: C:\Program Files\SEGGER\JLink\JLinkGUIServer.exe
T43E0 000:035.049   Forking J-Link GUI Server: C:\Program Files\SEGGER\JLink\JLinkGUIServer.exe
T43E0 000:036.353   J-Link GUI Server info: "J-Link GUI server V7.88j "
T43E0 000:036.855 - 13.207ms returns "O.K."
T43E0 000:036.897 JLINK_GetEmuCaps()
T43E0 000:036.903 - 0.009ms returns 0xB9FF7BBF
T43E0 000:036.913 JLINK_TIF_GetAvailable(...)
T43E0 000:037.036 - 0.129ms
T43E0 000:037.049 JLINK_SetErrorOutHandler(...)
T43E0 000:037.054 - 0.007ms
T43E0 000:037.098 JLINK_ExecCommand("ProjectFile = "E:\0-Project\00_SVNRep\My_Rep\xianqiantuo.DVM2405M_G4\Prj_Release\JLinkSettings.ini"", ...). 
T43E0 000:053.376   Ref file found at: D:\InstallFiles\Keil_v5\ARM\Segger\JLinkDevices.ref
T43E0 000:053.441   REF file references invalid XML file: C:\Program Files\SEGGER\JLink\JLinkDevices.xml
T43E0 000:053.900   Flash bank @ 0x08000000: SFL: Parsing sectorization info from ELF file
T43E0 000:053.908     FlashDevice.SectorInfo[0]: .SectorSize = 0x00000800, .SectorStartAddr = 0x00000000
T43E0 000:053.914   FlashBank @0x08000000: Sectorization info from SFL ELF file ignored because sectorization override from DLL / XML file is active.
T43E0 000:054.026   Device "STM32G431KB" selected.
T43E0 000:054.232 - 17.138ms returns 0x00
T43E0 000:054.259 JLINK_ExecCommand("Device = STM32G473RCTx", ...). 
T43E0 000:054.576   Flash bank @ 0x08000000: SFL: Parsing sectorization info from ELF file
T43E0 000:054.586     FlashDevice.SectorInfo[0]: .SectorSize = 0x00000800, .SectorStartAddr = 0x00000000
T43E0 000:054.592   FlashBank @0x08000000: Sectorization info from SFL ELF file ignored because sectorization override from DLL / XML file is active.
T43E0 000:054.658   Device "STM32G431KB" selected.
T43E0 000:054.841 - 0.580ms returns 0x00
T43E0 000:054.851 JLINK_ExecCommand("DisableConnectionTimeout", ...). 
T43E0 000:054.858 - 0.003ms returns 0x01
T43E0 000:054.863 JLINK_GetHardwareVersion()
T43E0 000:054.867 - 0.005ms returns 92000
T43E0 000:054.880 JLINK_GetDLLVersion()
T43E0 000:054.884 - 0.005ms returns 78810
T43E0 000:054.889 JLINK_GetOEMString(...)
T43E0 000:054.894 JLINK_GetFirmwareString(...)
T43E0 000:054.897 - 0.005ms
T43E0 000:054.912 JLINK_GetDLLVersion()
T43E0 000:054.916 - 0.005ms returns 78810
T43E0 000:054.921 JLINK_GetCompileDateTime()
T43E0 000:054.924 - 0.005ms
T43E0 000:054.933 JLINK_GetFirmwareString(...)
T43E0 000:054.936 - 0.005ms
T43E0 000:054.944 JLINK_GetHardwareVersion()
T43E0 000:054.948 - 0.005ms returns 92000
T43E0 000:054.957 JLINK_GetSN()
T43E0 000:054.962 - 0.006ms returns -1
T43E0 000:054.966 JLINK_GetOEMString(...)
T43E0 000:054.977 JLINK_TIF_Select(JLINKARM_TIF_SWD)
T43E0 000:055.732 - 0.761ms returns 0x00
T43E0 000:055.743 JLINK_HasError()
T43E0 000:055.763 JLINK_SetSpeed(2000)
T43E0 000:055.908 - 0.150ms
T43E0 000:055.918 JLINK_GetId()
T43E0 000:056.087   InitTarget() start
T43E0 000:056.103    J-Link Script File: Executing InitTarget()
T43E0 000:056.336   SWD selected. Executing JTAG -> SWD switching sequence.
T43E0 000:058.052   DAP initialized successfully.
T43E0 000:064.641   InitTarget() end - Took 8.51ms
T43E0 000:065.258   Found SW-DP with ID 0x2BA01477
T43E0 000:067.172   DPIDR: 0x2BA01477
T43E0 000:067.190   CoreSight SoC-400 or earlier
T43E0 000:067.199   Scanning AP map to find all available APs
T43E0 000:067.728   AP[1]: Stopped AP scan as end of AP map has been reached
T43E0 000:067.743   AP[0]: AHB-AP (IDR: 0x24770011)
T43E0 000:067.752   Iterating through AP map to find AHB-AP to use
T43E0 000:068.664   AP[0]: Core found
T43E0 000:068.674   AP[0]: AHB-AP ROM base: 0xE00FF000
T43E0 000:069.067   CPUID register: 0x410FC241. Implementer code: 0x41 (ARM)
T43E0 000:069.082   Found Cortex-M4 r0p1, Little endian.
T43E0 000:069.319   -- Max. mem block: 0x00010E60
T43E0 000:069.650   CPU_ReadMem(4 bytes @ 0xE000EDF0)
T43E0 000:069.939   CPU_ReadMem(4 bytes @ 0xE0002000)
T43E0 000:070.222   FPUnit: 6 code (BP) slots and 2 literal slots
T43E0 000:070.229   CPU_ReadMem(4 bytes @ 0xE000EDFC)
T43E0 000:070.512   CPU_WriteMem(4 bytes @ 0xE000EDFC)
T43E0 000:070.818   CPU_ReadMem(4 bytes @ 0xE0001000)
T43E0 000:071.171   CPU_WriteMem(4 bytes @ 0xE0001000)
T43E0 000:071.491   CPU_ReadMem(4 bytes @ 0xE000ED88)
T43E0 000:071.806   CPU_WriteMem(4 bytes @ 0xE000ED88)
T43E0 000:072.112   CPU_ReadMem(4 bytes @ 0xE000ED88)
T43E0 000:072.391   CPU_WriteMem(4 bytes @ 0xE000ED88)
T43E0 000:072.702   CoreSight components:
T43E0 000:072.712   ROMTbl[0] @ E00FF000
T43E0 000:072.718   CPU_ReadMem(64 bytes @ 0xE00FF000)
T43E0 000:073.537   CPU_ReadMem(32 bytes @ 0xE000EFE0)
T43E0 000:074.270   [0][0]: E000E000 CID B105E00D PID 000BB00C SCS-M7
T43E0 000:074.281   CPU_ReadMem(32 bytes @ 0xE0001FE0)
T43E0 000:074.793   [0][1]: E0001000 CID B105E00D PID 003BB002 DWT
T43E0 000:074.800   CPU_ReadMem(32 bytes @ 0xE0002FE0)
T43E0 000:075.347   [0][2]: E0002000 CID B105E00D PID 002BB003 FPB
T43E0 000:075.354   CPU_ReadMem(32 bytes @ 0xE0000FE0)
T43E0 000:075.963   [0][3]: E0000000 CID B105E00D PID 003BB001 ITM
T43E0 000:076.011   CPU_ReadMem(32 bytes @ 0xE0040FE0)
T43E0 000:076.557   [0][4]: E0040000 CID B105900D PID 000BB9A1 TPIU
T43E0 000:076.564   CPU_ReadMem(32 bytes @ 0xE0041FE0)
T43E0 000:077.170   [0][5]: E0041000 CID B105900D PID 000BB925 ETM
T43E0 000:077.410 - 21.494ms returns 0x2BA01477
T43E0 000:077.421 JLINK_GetDLLVersion()
T43E0 000:077.425 - 0.005ms returns 78810
T43E0 000:077.431 JLINK_CORE_GetFound()
T43E0 000:077.435 - 0.005ms returns 0xE0000FF
T43E0 000:077.472 JLINK_GetDebugInfo(0x100 = JLINKARM_ROM_TABLE_ADDR_INDEX)
T43E0 000:077.478   Value=0xE00FF000
T43E0 000:077.483 - 0.012ms returns 0
T43E0 000:077.494 JLINK_GetDebugInfo(0x100 = JLINKARM_ROM_TABLE_ADDR_INDEX)
T43E0 000:077.498   Value=0xE00FF000
T43E0 000:077.503 - 0.011ms returns 0
T43E0 000:077.508 JLINK_GetDebugInfo(0x101 = JLINKARM_DEBUG_INFO_ETM_ADDR_INDEX)
T43E0 000:077.512   Value=0xE0041000
T43E0 000:077.517 - 0.011ms returns 0
T43E0 000:077.522 JLINK_ReadMemEx(0xE0041FD0, 0x20 Bytes, Flags = 0x02000004)
T43E0 000:077.543   CPU_ReadMem(32 bytes @ 0xE0041FD0)
T43E0 000:078.070   Data:  04 00 00 00 00 00 00 00 00 00 00 00 00 00 00 00 ...
T43E0 000:078.077 - 0.556ms returns 32 (0x20)
T43E0 000:078.083 JLINK_GetDebugInfo(0x102 = JLINKARM_DEBUG_INFO_MTB_ADDR_INDEX)
T43E0 000:078.087   Value=0x00000000
T43E0 000:078.092 - 0.011ms returns 0
T43E0 000:078.097 JLINK_GetDebugInfo(0x103 = JLINKARM_DEBUG_INFO_TPIU_ADDR_INDEX)
T43E0 000:078.101   Value=0xE0040000
T43E0 000:078.106 - 0.011ms returns 0
T43E0 000:078.110 JLINK_GetDebugInfo(0x104 = JLINKARM_DEBUG_INFO_ITM_ADDR_INDEX)
T43E0 000:078.114   Value=0xE0000000
T43E0 000:078.119 - 0.011ms returns 0
T43E0 000:078.124 JLINK_GetDebugInfo(0x105 = JLINKARM_DEBUG_INFO_DWT_ADDR_INDEX)
T43E0 000:078.128   Value=0xE0001000
T43E0 000:078.133 - 0.010ms returns 0
T43E0 000:078.137 JLINK_GetDebugInfo(0x106 = JLINKARM_DEBUG_INFO_FPB_ADDR_INDEX)
T43E0 000:078.142   Value=0xE0002000
T43E0 000:078.147 - 0.011ms returns 0
T43E0 000:078.155 JLINK_GetDebugInfo(0x107 = JLINKARM_DEBUG_INFO_NVIC_ADDR_INDEX)
T43E0 000:078.161   Value=0xE000E000
T43E0 000:078.166 - 0.013ms returns 0
T43E0 000:078.170 JLINK_GetDebugInfo(0x10C = JLINKARM_DEBUG_INFO_DBG_ADDR_INDEX)
T43E0 000:078.174   Value=0xE000EDF0
T43E0 000:078.179 - 0.011ms returns 0
T43E0 000:078.184 JLINK_GetDebugInfo(0x01 = Unknown)
T43E0 000:078.192   Value=0x00000001
T43E0 000:078.197 - 0.015ms returns 0
T43E0 000:078.202 JLINK_ReadMemU32(0xE000ED00, 0x1 Items)
T43E0 000:078.210   CPU_ReadMem(4 bytes @ 0xE000ED00)
T43E0 000:078.501   Data:  41 C2 0F 41
T43E0 000:078.509   Debug reg: CPUID
T43E0 000:078.514 - 0.314ms returns 1 (0x1)
T43E0 000:078.520 JLINK_GetDebugInfo(0x10F = JLINKARM_DEBUG_INFO_HAS_CORTEX_M_SECURITY_EXT_INDEX)
T43E0 000:078.524   Value=0x00000000
T43E0 000:078.529 - 0.011ms returns 0
T43E0 000:078.534 JLINK_HasError()
T43E0 000:078.539 JLINK_SetResetType(JLINKARM_CM3_RESET_TYPE_NORMAL)
T43E0 000:078.543 - 0.006ms returns JLINKARM_CM3_RESET_TYPE_NORMAL
T43E0 000:078.548 JLINK_Reset()
T43E0 000:078.567   CPU is running
T43E0 000:078.574   CPU_WriteMem(4 bytes @ 0xE000EDF0)
T43E0 000:078.932   CPU is running
T43E0 000:078.938   CPU_WriteMem(4 bytes @ 0xE000EDFC)
T43E0 000:079.267   Reset: Halt core after reset via DEMCR.VC_CORERESET.
T43E0 000:079.548   Reset: Reset device via AIRCR.SYSRESETREQ.
T43E0 000:079.564   CPU is running
T43E0 000:079.573   CPU_WriteMem(4 bytes @ 0xE000ED0C)
T43E0 000:133.127   CPU_ReadMem(4 bytes @ 0xE000EDF0)
T43E0 000:133.810   CPU_ReadMem(4 bytes @ 0xE000EDF0)
T43E0 000:138.250   CPU_WriteMem(4 bytes @ 0xE000EDFC)
T43E0 000:144.179   CPU_ReadMem(4 bytes @ 0xE000EDF0)
T43E0 000:148.526   CPU_WriteMem(4 bytes @ 0xE0002000)
T43E0 000:148.846   CPU_ReadMem(4 bytes @ 0xE000EDFC)
T43E0 000:149.417   CPU_ReadMem(4 bytes @ 0xE0001000)
T43E0 000:150.045 - 71.501ms
T43E0 000:150.058 JLINK_HasError()
T43E0 000:150.063 JLINK_ReadReg(R15 (PC))
T43E0 000:150.083 - 0.021ms returns 0xFFFFFFFE
T43E0 000:150.089 JLINK_ReadReg(XPSR)
T43E0 000:150.094 - 0.006ms returns 0x01000000
T43E0 000:150.099 JLINK_Halt()
T43E0 000:150.103 - 0.005ms returns 0x00
T43E0 000:150.108 JLINK_ReadMemU32(0xE000EDF0, 0x1 Items)
T43E0 000:150.117   CPU_ReadMem(4 bytes @ 0xE000EDF0)
T43E0 000:150.593   Data:  03 00 03 00
T43E0 000:150.605   Debug reg: DHCSR
T43E0 000:150.610 - 0.504ms returns 1 (0x1)
T43E0 000:150.678 JLINK_WriteU32_64(0xE000EDF0, 0xA05F0003)
T43E0 000:150.685   Debug reg: DHCSR
T43E0 000:150.951   CPU_WriteMem(4 bytes @ 0xE000EDF0)
T43E0 000:151.492 - 0.816ms returns 0 (0x00000000)
T43E0 000:151.499 JLINK_WriteU32_64(0xE000EDFC, 0x01000000)
T43E0 000:151.503   Debug reg: DEMCR
T43E0 000:151.512   CPU_WriteMem(4 bytes @ 0xE000EDFC)
T43E0 000:152.046 - 0.550ms returns 0 (0x00000000)
T43E0 000:152.081 JLINK_GetHWStatus(...)
T43E0 000:152.276 - 0.199ms returns 0
T43E0 000:152.300 JLINK_GetNumBPUnits(Type = 0xFFFFFF00)
T43E0 000:152.305 - 0.007ms returns 0x06
T43E0 000:152.309 JLINK_GetNumBPUnits(Type = 0xF0)
T43E0 000:152.313 - 0.005ms returns 0x2000
T43E0 000:152.318 JLINK_GetNumWPUnits()
T43E0 000:152.322 - 0.005ms returns 4
T43E0 000:152.334 JLINK_GetSpeed()
T43E0 000:152.338 - 0.006ms returns 2000
T43E0 000:152.347 JLINK_ReadMemU32(0xE000E004, 0x1 Items)
T43E0 000:152.356   CPU_ReadMem(4 bytes @ 0xE000E004)
T43E0 000:152.766   Data:  03 00 00 00
T43E0 000:152.772 - 0.427ms returns 1 (0x1)
T43E0 000:152.778 JLINK_ReadMemU32(0xE000E004, 0x1 Items)
T43E0 000:152.785   CPU_ReadMem(4 bytes @ 0xE000E004)
T43E0 000:153.233   Data:  03 00 00 00
T43E0 000:153.241 - 0.464ms returns 1 (0x1)
T43E0 000:153.247 JLINK_WriteMemEx(0xE0001000, 0x0000001C Bytes, Flags = 0x02000004)
T43E0 000:153.251   Data:  01 00 00 00 00 00 00 00 00 00 00 00 00 00 00 00 ...
T43E0 000:153.262   CPU_WriteMem(28 bytes @ 0xE0001000)
T43E0 000:153.858 - 0.614ms returns 0x1C
T43E0 000:153.865 JLINK_HasError()
T43E0 000:153.870 JLINK_ReadReg(R15 (PC))
T43E0 000:153.876 - 0.007ms returns 0xFFFFFFFE
T43E0 000:153.881 JLINK_ReadReg(XPSR)
T43E0 000:153.889 - 0.010ms returns 0x01000000
T43E0 000:168.474 JLINK_ReadMemEx(0xE0001004, 0x4 Bytes, Flags = 0x02000000)
T43E0 000:168.509   Data:  00 00 00 00
T43E0 000:168.518   Debug reg: DWT_CYCCNT
T43E0 000:168.525 - 0.053ms returns 4 (0x4)
T43E0 000:301.106 JLINK_HasError()
T43E0 000:301.135 JLINK_SetResetType(JLINKARM_CM3_RESET_TYPE_NORMAL)
T43E0 000:301.142 - 0.009ms returns JLINKARM_CM3_RESET_TYPE_NORMAL
T43E0 000:301.150 JLINK_Reset()
T43E0 000:301.169   CPU_WriteMem(4 bytes @ 0xE000EDF0)
T43E0 000:301.560   CPU_WriteMem(4 bytes @ 0xE000EDFC)
T43E0 000:301.953   Reset: Halt core after reset via DEMCR.VC_CORERESET.
T43E0 000:302.243   Reset: Reset device via AIRCR.SYSRESETREQ.
T43E0 000:302.252   CPU_WriteMem(4 bytes @ 0xE000ED0C)
T43E0 000:356.083   CPU_ReadMem(4 bytes @ 0xE000EDF0)
T43E0 000:356.677   CPU_ReadMem(4 bytes @ 0xE000EDF0)
T43E0 000:357.180   CPU_WriteMem(4 bytes @ 0xE000EDFC)
T43E0 000:363.725   CPU_ReadMem(4 bytes @ 0xE000EDF0)
T43E0 000:368.274   CPU_WriteMem(4 bytes @ 0xE0002000)
T43E0 000:368.710   CPU_ReadMem(4 bytes @ 0xE000EDFC)
T43E0 000:369.404   CPU_ReadMem(4 bytes @ 0xE0001000)
T43E0 000:370.139 - 69.004ms
T43E0 000:370.202 JLINK_HasError()
T43E0 000:370.260 JLINK_ReadReg(R15 (PC))
T43E0 000:370.284 - 0.028ms returns 0xFFFFFFFE
T43E0 000:370.294 JLINK_ReadReg(XPSR)
T43E0 000:370.305 - 0.016ms returns 0x01000000
T43E0 000:372.270 JLINK_ReadMemEx(0xFFFFFFFE, 0x2 Bytes, Flags = 0x02000000)
T43E0 000:372.300   CPU_ReadMem(2 bytes @ 0xFFFFFFFE)
T43E0 000:372.788   failed
T43E0 000:372.816 - 0.553ms returns -1 (0xFFFFFFFF)
T43E0 000:372.835 JLINK_ReadMemEx(0xFFFFFFFE, 0x2 Bytes, Flags = 0x02000000)
T43E0 000:372.859   CPU_ReadMem(2 bytes @ 0xFFFFFFFE)
T43E0 000:373.590   failed
T43E0 000:373.612 - 0.780ms returns -1 (0xFFFFFFFF)
T43E0 000:373.625 JLINK_ReadMemEx(0xFFFFFFFE, 0x2 Bytes, Flags = 0x02000000)
T43E0 000:373.644   CPU_ReadMem(2 bytes @ 0xFFFFFFFE)
T43E0 000:374.448   failed
T43E0 000:374.468 - 0.845ms returns -1 (0xFFFFFFFF)
T43E0 000:374.478 JLINK_ReadMemEx(0xFFFFFFFE, 0x2 Bytes, Flags = 0x02000000)
T43E0 000:374.493   CPU_ReadMem(2 bytes @ 0xFFFFFFFE)
T43E0 000:375.374   failed
T43E0 000:375.394 - 0.918ms returns -1 (0xFFFFFFFF)
T43E0 000:375.403 JLINK_ReadMemEx(0xFFFFFFFE, 0x2 Bytes, Flags = 0x02000000)
T43E0 000:375.418   CPU_ReadMem(2 bytes @ 0xFFFFFFFE)
T43E0 000:376.240   failed
T43E0 000:376.260 - 0.858ms returns -1 (0xFFFFFFFF)
T43E0 000:376.269 JLINK_ReadMemEx(0xFFFFFFFE, 0x1 Bytes, Flags = 0x02000000)
T43E0 000:376.284   CPU_ReadMem(1 bytes @ 0xFFFFFFFE)
T43E0 000:376.938   failed
T43E0 000:376.953 - 0.685ms returns -1 (0xFFFFFFFF)
T43E0 000:377.018 JLINK_ReadMemEx(0x00000000, 0x3C Bytes, Flags = 0x02000000)
T43E0 000:377.311   CPU_ReadMem(4 bytes @ 0x00000004)
T43E0 000:377.891   CPU_ReadMem(64 bytes @ 0x08000000)
T43E0 000:378.756    -- Updating C cache (64 bytes @ 0x08000000)
T43E0 000:378.794    -- Read from C cache (60 bytes @ 0x08000000)
T43E0 000:378.810   Data:  FF FF FF FF FF FF FF FF FF FF FF FF FF FF FF FF ...
T43E0 000:378.822 - 1.808ms returns 60 (0x3C)
T43E0 000:378.838 JLINK_ReadMemEx(0x00000000, 0x2 Bytes, Flags = 0x02000000)
T43E0 000:378.850    -- Read from C cache (2 bytes @ 0x08000000)
T43E0 000:378.859   Data:  FF FF
T43E0 000:378.866 - 0.031ms returns 2 (0x2)
T43E0 000:379.335 JLINK_ReadMemEx(0x00000000, 0x3C Bytes, Flags = 0x02000000)
T43E0 000:379.348    -- Read from C cache (60 bytes @ 0x08000000)
T43E0 000:379.358   Data:  FF FF FF FF FF FF FF FF FF FF FF FF FF FF FF FF ...
T43E0 000:379.365 - 0.033ms returns 60 (0x3C)
T43E0 000:379.372 JLINK_ReadMemEx(0x00000000, 0x2 Bytes, Flags = 0x02000000)
T43E0 000:379.379    -- Read from C cache (2 bytes @ 0x08000000)
T43E0 000:379.387   Data:  FF FF
T43E0 000:379.394 - 0.024ms returns 2 (0x2)
T43E0 000:379.401 JLINK_ReadMemEx(0x00000002, 0x2 Bytes, Flags = 0x02000000)
T43E0 000:379.408    -- Read from C cache (2 bytes @ 0x08000002)
T43E0 000:379.415   Data:  FF FF
T43E0 000:379.423 - 0.024ms returns 2 (0x2)
T43E0 000:379.501 JLINK_ReadMemEx(0x00000004, 0x3C Bytes, Flags = 0x02000000)
T43E0 000:379.513    -- Read from C cache (60 bytes @ 0x08000004)
T43E0 000:379.522   Data:  FF FF FF FF FF FF FF FF FF FF FF FF FF FF FF FF ...
T43E0 000:379.529 - 0.030ms returns 60 (0x3C)
T43E0 000:379.536 JLINK_ReadMemEx(0x00000004, 0x2 Bytes, Flags = 0x02000000)
T43E0 000:379.542    -- Read from C cache (2 bytes @ 0x08000004)
T43E0 000:379.550   Data:  FF FF
T43E0 000:379.557 - 0.024ms returns 2 (0x2)
T43E0 000:379.564 JLINK_ReadMemEx(0x00000006, 0x2 Bytes, Flags = 0x02000000)
T43E0 000:379.570    -- Read from C cache (2 bytes @ 0x08000006)
T43E0 000:379.578   Data:  FF FF
T43E0 000:379.585 - 0.024ms returns 2 (0x2)
T43E0 000:499.709 JLINK_ReadMemEx(0x50000000, 0x18 Bytes, Flags = 0x02000004)
T43E0 000:499.738   CPU_ReadMem(24 bytes @ 0x50000000)
T43E0 000:500.276   Data:  00 00 00 00 00 00 00 00 00 00 00 00 00 00 00 00 ...
T43E0 000:500.286 - 0.578ms returns 24 (0x18)
T43E0 000:500.300 JLINK_ReadMemEx(0x50000018, 0x4 Bytes, Flags = 0x02000004)
T43E0 000:500.309   CPU_ReadMem(4 bytes @ 0x50000018)
T43E0 000:500.652   Data:  00 00 00 00
T43E0 000:500.658 - 0.360ms returns 4 (0x4)
T43E0 000:500.666 JLINK_ReadMemEx(0x50000020, 0x8 Bytes, Flags = 0x02000004)
T43E0 000:500.673   CPU_ReadMem(8 bytes @ 0x50000020)
T43E0 000:501.045   Data:  00 00 00 00 00 00 00 00
T43E0 000:501.051 - 0.387ms returns 8 (0x8)
T43E0 000:501.059 JLINK_ReadMemEx(0x50000028, 0x4 Bytes, Flags = 0x02000004)
T43E0 000:501.065   CPU_ReadMem(4 bytes @ 0x50000028)
T43E0 000:501.369   Data:  00 00 00 00
T43E0 000:501.376 - 0.319ms returns 4 (0x4)
T43E0 000:501.383 JLINK_ReadMemEx(0x50000030, 0x10 Bytes, Flags = 0x02000004)
T43E0 000:501.390   CPU_ReadMem(16 bytes @ 0x50000030)
T43E0 000:501.862   Data:  00 00 00 00 00 00 00 00 00 00 00 00 00 00 00 00
T43E0 000:501.869 - 0.488ms returns 16 (0x10)
T43E0 000:501.876 JLINK_ReadMemEx(0x50000040, 0x4 Bytes, Flags = 0x02000004)
T43E0 000:501.883   CPU_ReadMem(4 bytes @ 0x50000040)
T43E0 000:502.184   Data:  00 00 00 00
T43E0 000:502.191 - 0.316ms returns 4 (0x4)
T43E0 000:502.198 JLINK_ReadMemEx(0x5000004C, 0x4 Bytes, Flags = 0x02000004)
T43E0 000:502.205   CPU_ReadMem(4 bytes @ 0x5000004C)
T43E0 000:502.476   Data:  00 00 00 00
T43E0 000:502.483 - 0.286ms returns 4 (0x4)
T43E0 000:502.490 JLINK_ReadMemEx(0x50000060, 0xC Bytes, Flags = 0x02000004)
T43E0 000:502.497   CPU_ReadMem(12 bytes @ 0x50000060)
T43E0 000:502.918   Data:  00 00 00 00 00 00 00 00 00 00 00 00
T43E0 000:502.925 - 0.436ms returns 12 (0xC)
T43E0 000:502.931 JLINK_ReadMemEx(0x5000006C, 0x4 Bytes, Flags = 0x02000004)
T43E0 000:502.937   CPU_ReadMem(4 bytes @ 0x5000006C)
T43E0 000:503.208   Data:  00 00 00 00
T43E0 000:503.219 - 0.289ms returns 4 (0x4)
T43E0 000:503.230 JLINK_ReadMemEx(0x50000080, 0xC Bytes, Flags = 0x02000004)
T43E0 000:503.242   CPU_ReadMem(12 bytes @ 0x50000080)
T43E0 000:503.594   Data:  00 00 00 00 00 00 00 00 00 00 00 00
T43E0 000:503.602 - 0.374ms returns 12 (0xC)
T43E0 000:503.611 JLINK_ReadMemEx(0x5000008C, 0x4 Bytes, Flags = 0x02000004)
T43E0 000:503.618   CPU_ReadMem(4 bytes @ 0x5000008C)
T43E0 000:503.938   Data:  00 00 00 00
T43E0 000:503.944 - 0.335ms returns 4 (0x4)
T43E0 000:503.951 JLINK_ReadMemEx(0x500000A0, 0x4 Bytes, Flags = 0x02000004)
T43E0 000:503.957   CPU_ReadMem(4 bytes @ 0x500000A0)
T43E0 000:504.232   Data:  00 00 00 00
T43E0 000:504.241 - 0.292ms returns 4 (0x4)
T43E0 000:504.251 JLINK_ReadMemEx(0x500000A4, 0x4 Bytes, Flags = 0x02000004)
T43E0 000:504.261   CPU_ReadMem(4 bytes @ 0x500000A4)
T43E0 000:504.538   Data:  00 00 00 00
T43E0 000:504.546 - 0.297ms returns 4 (0x4)
T43E0 000:504.554 JLINK_ReadMemEx(0x500000B0, 0x4 Bytes, Flags = 0x02000004)
T43E0 000:504.561   CPU_ReadMem(4 bytes @ 0x500000B0)
T43E0 000:504.853   Data:  00 00 00 00
T43E0 000:504.859 - 0.307ms returns 4 (0x4)
T43E0 000:504.866 JLINK_ReadMemEx(0x500000B4, 0x4 Bytes, Flags = 0x02000004)
T43E0 000:504.873   CPU_ReadMem(4 bytes @ 0x500000B4)
T43E0 000:505.179   Data:  00 00 00 00
T43E0 000:505.190 - 0.326ms returns 4 (0x4)
T43E0 000:505.197 JLINK_ReadMemEx(0x500000C0, 0x4 Bytes, Flags = 0x02000004)
T43E0 000:505.204   CPU_ReadMem(4 bytes @ 0x500000C0)
T43E0 000:505.468   Data:  00 00 00 00
T43E0 000:505.474 - 0.279ms returns 4 (0x4)
T43E0 000:579.500 JLINK_ReadMemEx(0x40012C00, 0x10 Bytes, Flags = 0x02000004)
T43E0 000:579.530   CPU_ReadMem(16 bytes @ 0x40012C00)
T43E0 000:580.103   Data:  00 00 00 00 00 00 00 00 00 00 00 00 00 00 00 00
T43E0 000:580.113 - 0.614ms returns 16 (0x10)
T43E0 000:580.121 JLINK_ReadMemEx(0x40012C10, 0x4 Bytes, Flags = 0x02000004)
T43E0 000:580.131   CPU_ReadMem(4 bytes @ 0x40012C10)
T43E0 000:580.676   Data:  00 00 00 00
T43E0 000:580.683 - 0.563ms returns 4 (0x4)
T43E0 000:580.690 JLINK_ReadMemEx(0x40012C18, 0x4C Bytes, Flags = 0x02000004)
T43E0 000:580.697   CPU_ReadMem(76 bytes @ 0x40012C18)
T43E0 000:582.018   Data:  00 00 00 00 00 00 00 00 00 00 00 00 00 00 00 00 ...
T43E0 000:582.039 - 1.351ms returns 76 (0x4C)
T43E0 000:582.054 JLINK_ReadMemEx(0x40012C64, 0x4 Bytes, Flags = 0x02000004)
T43E0 000:582.069   CPU_ReadMem(4 bytes @ 0x40012C64)
T43E0 000:582.547   Data:  00 00 00 00
T43E0 000:582.565 - 0.513ms returns 4 (0x4)
T43E0 000:582.582 JLINK_ReadMemEx(0x40012FDC, 0x4 Bytes, Flags = 0x02000004)
T43E0 000:582.596   CPU_ReadMem(4 bytes @ 0x40012FDC)
T43E0 000:582.965   Data:  00 00 00 00
T43E0 000:582.994 - 0.415ms returns 4 (0x4)
T43E0 000:583.071 JLINK_ReadMemEx(0x40012FE0, 0x4 Bytes, Flags = 0x02000004)
T43E0 000:583.113   CPU_ReadMem(4 bytes @ 0x40012FE0)
T43E0 000:583.553   Data:  00 00 00 00
T43E0 000:583.579 - 0.511ms returns 4 (0x4)
T43E0 002:002.134 JLINK_ReadMemEx(0xFFFFFFFE, 0x2 Bytes, Flags = 0x02000000)
T43E0 002:002.165   CPU_ReadMem(2 bytes @ 0xFFFFFFFE)
T43E0 002:002.562   failed
T43E0 002:002.569 - 0.437ms returns -1 (0xFFFFFFFF)
T43E0 002:002.575 JLINK_ReadMemEx(0xFFFFFFFE, 0x2 Bytes, Flags = 0x02000000)
T43E0 002:002.582   CPU_ReadMem(2 bytes @ 0xFFFFFFFE)
T43E0 002:003.013   failed
T43E0 002:003.019 - 0.445ms returns -1 (0xFFFFFFFF)
T43E0 002:003.025 JLINK_ReadMemEx(0xFFFFFFFE, 0x2 Bytes, Flags = 0x02000000)
T43E0 002:003.031   CPU_ReadMem(2 bytes @ 0xFFFFFFFE)
T43E0 002:003.409   failed
T43E0 002:003.415 - 0.392ms returns -1 (0xFFFFFFFF)
T43E0 002:003.421 JLINK_ReadMemEx(0xFFFFFFFE, 0x2 Bytes, Flags = 0x02000000)
T43E0 002:003.427   CPU_ReadMem(2 bytes @ 0xFFFFFFFE)
T43E0 002:003.812   failed
T43E0 002:003.825 - 0.406ms returns -1 (0xFFFFFFFF)
T43E0 002:003.836 JLINK_ReadMemEx(0xFFFFFFFE, 0x2 Bytes, Flags = 0x02000000)
T43E0 002:003.850   CPU_ReadMem(2 bytes @ 0xFFFFFFFE)
T43E0 002:004.270   failed
T43E0 002:004.287 - 0.453ms returns -1 (0xFFFFFFFF)
T43E0 002:004.298 JLINK_ReadMemEx(0xFFFFFFFE, 0x1 Bytes, Flags = 0x02000000)
T43E0 002:004.312   CPU_ReadMem(1 bytes @ 0xFFFFFFFE)
T43E0 002:004.706   failed
T43E0 002:004.715 - 0.419ms returns -1 (0xFFFFFFFF)
T43E0 002:004.725 JLINK_ReadMemEx(0x00000000, 0x3C Bytes, Flags = 0x02000000)
T43E0 002:004.733    -- Read from C cache (60 bytes @ 0x08000000)
T43E0 002:004.740   Data:  FF FF FF FF FF FF FF FF FF FF FF FF FF FF FF FF ...
T43E0 002:004.745 - 0.022ms returns 60 (0x3C)
T43E0 002:004.751 JLINK_ReadMemEx(0x00000000, 0x2 Bytes, Flags = 0x02000000)
T43E0 002:004.757    -- Read from C cache (2 bytes @ 0x08000000)
T43E0 002:004.764   Data:  FF FF
T43E0 002:004.769 - 0.020ms returns 2 (0x2)
T43E0 002:004.815 JLINK_ReadMemEx(0x00000000, 0x3C Bytes, Flags = 0x02000000)
T43E0 002:004.822    -- Read from C cache (60 bytes @ 0x08000000)
T43E0 002:004.829   Data:  FF FF FF FF FF FF FF FF FF FF FF FF FF FF FF FF ...
T43E0 002:004.834 - 0.021ms returns 60 (0x3C)
T43E0 002:004.839 JLINK_ReadMemEx(0x00000000, 0x2 Bytes, Flags = 0x02000000)
T43E0 002:004.843    -- Read from C cache (2 bytes @ 0x08000000)
T43E0 002:004.849   Data:  FF FF
T43E0 002:004.854 - 0.017ms returns 2 (0x2)
T43E0 002:004.859 JLINK_ReadMemEx(0x00000002, 0x2 Bytes, Flags = 0x02000000)
T43E0 002:004.864    -- Read from C cache (2 bytes @ 0x08000002)
T43E0 002:004.869   Data:  FF FF
T43E0 002:004.882 - 0.024ms returns 2 (0x2)
T43E0 002:004.898 JLINK_ReadMemEx(0x00000004, 0x3C Bytes, Flags = 0x02000000)
T43E0 002:004.903    -- Read from C cache (60 bytes @ 0x08000004)
T43E0 002:004.909   Data:  FF FF FF FF FF FF FF FF FF FF FF FF FF FF FF FF ...
T43E0 002:004.914 - 0.018ms returns 60 (0x3C)
T43E0 002:004.919 JLINK_ReadMemEx(0x00000004, 0x2 Bytes, Flags = 0x02000000)
T43E0 002:004.923    -- Read from C cache (2 bytes @ 0x08000004)
T43E0 002:004.929   Data:  FF FF
T43E0 002:004.934 - 0.017ms returns 2 (0x2)
T43E0 002:004.939 JLINK_ReadMemEx(0x00000006, 0x2 Bytes, Flags = 0x02000000)
T43E0 002:004.943    -- Read from C cache (2 bytes @ 0x08000006)
T43E0 002:004.948   Data:  FF FF
T43E0 002:004.954 - 0.017ms returns 2 (0x2)
T43E0 002:004.963 JLINK_ReadMemEx(0x00000008, 0x3C Bytes, Flags = 0x02000000)
T43E0 002:004.970   CPU_ReadMem(64 bytes @ 0x08000040)
T43E0 002:005.741    -- Updating C cache (64 bytes @ 0x08000040)
T43E0 002:005.751    -- Read from C cache (60 bytes @ 0x08000008)
T43E0 002:005.758   Data:  FF FF FF FF FF FF FF FF FF FF FF FF FF FF FF FF ...
T43E0 002:005.763 - 0.802ms returns 60 (0x3C)
T43E0 002:005.769 JLINK_ReadMemEx(0x00000008, 0x2 Bytes, Flags = 0x02000000)
T43E0 002:005.775    -- Read from C cache (2 bytes @ 0x08000008)
T43E0 002:005.780   Data:  FF FF
T43E0 002:005.786 - 0.018ms returns 2 (0x2)
T43E0 002:005.791 JLINK_ReadMemEx(0x0000000A, 0x2 Bytes, Flags = 0x02000000)
T43E0 002:005.796    -- Read from C cache (2 bytes @ 0x0800000A)
T43E0 002:005.801   Data:  FF FF
T43E0 002:005.806 - 0.017ms returns 2 (0x2)
T43E0 002:005.821 JLINK_ReadMemEx(0x0000000C, 0x3C Bytes, Flags = 0x02000000)
T43E0 002:005.826    -- Read from C cache (60 bytes @ 0x0800000C)
T43E0 002:005.832   Data:  FF FF FF FF FF FF FF FF FF FF FF FF FF FF FF FF ...
T43E0 002:005.838 - 0.018ms returns 60 (0x3C)
T43E0 002:005.842 JLINK_ReadMemEx(0x0000000C, 0x2 Bytes, Flags = 0x02000000)
T43E0 002:005.847    -- Read from C cache (2 bytes @ 0x0800000C)
T43E0 002:005.852   Data:  FF FF
T43E0 002:005.857 - 0.016ms returns 2 (0x2)
T43E0 002:005.862 JLINK_ReadMemEx(0x0000000E, 0x2 Bytes, Flags = 0x02000000)
T43E0 002:005.866    -- Read from C cache (2 bytes @ 0x0800000E)
T43E0 002:005.872   Data:  FF FF
T43E0 002:005.877 - 0.016ms returns 2 (0x2)
T43E0 002:381.607 JLINK_HasError()
T43E0 002:381.635 JLINK_ReadReg(R0)
T43E0 002:381.975 - 0.347ms returns 0x00000000
T43E0 002:381.988 JLINK_ReadReg(R1)
T43E0 002:381.993 - 0.007ms returns 0x00000000
T43E0 002:381.998 JLINK_ReadReg(R2)
T43E0 002:382.002 - 0.006ms returns 0x00000000
T43E0 002:382.007 JLINK_ReadReg(R3)
T43E0 002:382.011 - 0.006ms returns 0x00000000
T43E0 002:382.016 JLINK_ReadReg(R4)
T43E0 002:382.020 - 0.006ms returns 0x00000000
T43E0 002:382.024 JLINK_ReadReg(R5)
T43E0 002:382.028 - 0.006ms returns 0x00000000
T43E0 002:382.033 JLINK_ReadReg(R6)
T43E0 002:382.037 - 0.005ms returns 0x00000000
T43E0 002:382.042 JLINK_ReadReg(R7)
T43E0 002:382.046 - 0.006ms returns 0x00000000
T43E0 002:382.050 JLINK_ReadReg(R8)
T43E0 002:382.067 - 0.018ms returns 0x00000000
T43E0 002:382.072 JLINK_ReadReg(R9)
T43E0 002:382.076 - 0.006ms returns 0x00000000
T43E0 002:382.080 JLINK_ReadReg(R10)
T43E0 002:382.084 - 0.006ms returns 0x00000000
T43E0 002:382.089 JLINK_ReadReg(R11)
T43E0 002:382.093 - 0.006ms returns 0x00000000
T43E0 002:382.098 JLINK_ReadReg(R12)
T43E0 002:382.102 - 0.005ms returns 0x00000000
T43E0 002:382.106 JLINK_ReadReg(R13 (SP))
T43E0 002:382.111 - 0.006ms returns 0xFFFFFFFC
T43E0 002:382.116 JLINK_ReadReg(R14)
T43E0 002:382.120 - 0.006ms returns 0xFFFFFFFF
T43E0 002:382.124 JLINK_ReadReg(R15 (PC))
T43E0 002:382.129 - 0.006ms returns 0xFFFFFFFE
T43E0 002:382.133 JLINK_ReadReg(XPSR)
T43E0 002:382.137 - 0.006ms returns 0x01000000
T43E0 002:382.142 JLINK_ReadReg(MSP)
T43E0 002:382.146 - 0.006ms returns 0xFFFFFFFC
T43E0 002:382.151 JLINK_ReadReg(PSP)
T43E0 002:382.155 - 0.006ms returns 0x00000000
T43E0 002:382.160 JLINK_ReadReg(CFBP)
T43E0 002:382.164 - 0.005ms returns 0x00000000
T43E0 002:382.172 JLINK_ReadReg(FPSCR)
T43E0 002:387.589 - 5.426ms returns 0x00000000
T43E0 002:387.604 JLINK_ReadReg(FPS0)
T43E0 002:387.611 - 0.008ms returns 0x00000000
T43E0 002:387.616 JLINK_ReadReg(FPS1)
T43E0 002:387.620 - 0.006ms returns 0x00000000
T43E0 002:387.625 JLINK_ReadReg(FPS2)
T43E0 002:387.629 - 0.006ms returns 0x00000000
T43E0 002:387.634 JLINK_ReadReg(FPS3)
T43E0 002:387.638 - 0.006ms returns 0x00000000
T43E0 002:387.642 JLINK_ReadReg(FPS4)
T43E0 002:387.646 - 0.005ms returns 0x00000000
T43E0 002:387.651 JLINK_ReadReg(FPS5)
T43E0 002:387.655 - 0.006ms returns 0x00000000
T43E0 002:387.660 JLINK_ReadReg(FPS6)
T43E0 002:387.664 - 0.005ms returns 0x00000000
T43E0 002:387.668 JLINK_ReadReg(FPS7)
T43E0 002:387.672 - 0.005ms returns 0x00000000
T43E0 002:387.677 JLINK_ReadReg(FPS8)
T43E0 002:387.681 - 0.005ms returns 0x00000000
T43E0 002:387.685 JLINK_ReadReg(FPS9)
T43E0 002:387.689 - 0.005ms returns 0x00000000
T43E0 002:387.694 JLINK_ReadReg(FPS10)
T43E0 002:387.698 - 0.006ms returns 0x00000000
T43E0 002:387.703 JLINK_ReadReg(FPS11)
T43E0 002:387.707 - 0.006ms returns 0x00000000
T43E0 002:387.711 JLINK_ReadReg(FPS12)
T43E0 002:387.715 - 0.006ms returns 0x00000000
T43E0 002:387.720 JLINK_ReadReg(FPS13)
T43E0 002:387.724 - 0.005ms returns 0x00000000
T43E0 002:387.728 JLINK_ReadReg(FPS14)
T43E0 002:387.732 - 0.005ms returns 0x00000000
T43E0 002:387.737 JLINK_ReadReg(FPS15)
T43E0 002:387.741 - 0.005ms returns 0x00000000
T43E0 002:387.745 JLINK_ReadReg(FPS16)
T43E0 002:387.749 - 0.005ms returns 0x00000000
T43E0 002:387.754 JLINK_ReadReg(FPS17)
T43E0 002:387.758 - 0.005ms returns 0x00000000
T43E0 002:387.763 JLINK_ReadReg(FPS18)
T43E0 002:387.766 - 0.005ms returns 0x00000000
T43E0 002:387.771 JLINK_ReadReg(FPS19)
T43E0 002:387.775 - 0.005ms returns 0x00000000
T43E0 002:387.780 JLINK_ReadReg(FPS20)
T43E0 002:387.784 - 0.005ms returns 0x00000000
T43E0 002:387.788 JLINK_ReadReg(FPS21)
T43E0 002:387.792 - 0.005ms returns 0x00000000
T43E0 002:387.797 JLINK_ReadReg(FPS22)
T43E0 002:387.801 - 0.005ms returns 0x00000000
T43E0 002:387.805 JLINK_ReadReg(FPS23)
T43E0 002:387.809 - 0.005ms returns 0x00000000
T43E0 002:387.814 JLINK_ReadReg(FPS24)
T43E0 002:387.818 - 0.005ms returns 0x00000000
T43E0 002:387.822 JLINK_ReadReg(FPS25)
T43E0 002:387.826 - 0.005ms returns 0x00000000
T43E0 002:387.831 JLINK_ReadReg(FPS26)
T43E0 002:387.836 - 0.006ms returns 0x00000000
T43E0 002:387.840 JLINK_ReadReg(FPS27)
T43E0 002:387.844 - 0.005ms returns 0x00000000
T43E0 002:387.849 JLINK_ReadReg(FPS28)
T43E0 002:387.853 - 0.005ms returns 0x00000000
T43E0 002:387.857 JLINK_ReadReg(FPS29)
T43E0 002:387.861 - 0.005ms returns 0x00000000
T43E0 002:387.866 JLINK_ReadReg(FPS30)
T43E0 002:387.870 - 0.005ms returns 0x00000000
T43E0 002:387.874 JLINK_ReadReg(FPS31)
T43E0 002:387.878 - 0.005ms returns 0x00000000
T43E0 002:387.900 JLINK_ReadMemEx(0x20002048, 0x4 Bytes, Flags = 0x02000000)
T43E0 002:387.912   CPU_ReadMem(64 bytes @ 0x20002040)
T43E0 002:388.670    -- Updating C cache (64 bytes @ 0x20002040)
T43E0 002:388.687    -- Read from C cache (4 bytes @ 0x20002048)
T43E0 002:388.695   Data:  00 00 00 00
T43E0 002:388.704 - 0.805ms returns 4 (0x4)
T43E0 002:396.686 JLINK_ReadMemEx(0x20002048, 0x4 Bytes, Flags = 0x02000000)
T43E0 002:396.712    -- Read from C cache (4 bytes @ 0x20002048)
T43E0 002:396.718   Data:  00 00 00 00
T43E0 002:396.725 - 0.041ms returns 4 (0x4)
T43E0 002:396.755 JLINK_ReadMemEx(0x20002048, 0x4 Bytes, Flags = 0x02000000)
T43E0 002:396.762    -- Read from C cache (4 bytes @ 0x20002048)
T43E0 002:396.767   Data:  00 00 00 00
T43E0 002:396.773 - 0.020ms returns 4 (0x4)
T43E0 002:403.824 JLINK_ReadMemEx(0x20000C78, 0x1 Bytes, Flags = 0x02000000)
T43E0 002:403.895   CPU_ReadMem(64 bytes @ 0x20000C40)
T43E0 002:404.846    -- Updating C cache (64 bytes @ 0x20000C40)
T43E0 002:404.857    -- Read from C cache (1 bytes @ 0x20000C78)
T43E0 002:404.863   Data:  00
T43E0 002:404.871 - 1.049ms returns 1 (0x1)
T43E0 002:404.902 JLINK_ReadMemEx(0x20000C78, 0x1 Bytes, Flags = 0x02000000)
T43E0 002:404.966    -- Read from C cache (1 bytes @ 0x20000C78)
T43E0 002:404.975   Data:  00
T43E0 002:404.981 - 0.081ms returns 1 (0x1)
T43E0 002:405.013 JLINK_ReadMemEx(0x20000C78, 0x1 Bytes, Flags = 0x02000000)
T43E0 002:405.022    -- Read from C cache (1 bytes @ 0x20000C78)
T43E0 002:405.028   Data:  00
T43E0 002:405.034 - 0.022ms returns 1 (0x1)
T43E0 002:426.014 JLINK_ReadMemEx(0x200021D0, 0x2 Bytes, Flags = 0x02000000)
T43E0 002:426.048   CPU_ReadMem(64 bytes @ 0x200021C0)
T43E0 002:427.254    -- Updating C cache (64 bytes @ 0x200021C0)
T43E0 002:427.262    -- Read from C cache (2 bytes @ 0x200021D0)
T43E0 002:427.268   Data:  22 00
T43E0 002:427.274 - 1.262ms returns 2 (0x2)
T43E0 002:427.297 JLINK_ReadMemEx(0x200021D0, 0x2 Bytes, Flags = 0x02000000)
T43E0 002:427.308    -- Read from C cache (2 bytes @ 0x200021D0)
T43E0 002:427.314   Data:  22 00
T43E0 002:427.319 - 0.024ms returns 2 (0x2)
T43E0 002:427.339 JLINK_ReadMemEx(0x200021D0, 0x2 Bytes, Flags = 0x02000000)
T43E0 002:427.344    -- Read from C cache (2 bytes @ 0x200021D0)
T43E0 002:427.350   Data:  22 00
T43E0 002:427.355 - 0.018ms returns 2 (0x2)
T1FE4 002:487.727 JLINK_ReadMemEx(0xFFFFFFFE, 0x2 Bytes, Flags = 0x02000000)
T1FE4 002:487.761   CPU_ReadMem(2 bytes @ 0xFFFFFFFE)
T1FE4 002:488.183   failed
T1FE4 002:488.198 - 0.474ms returns -1 (0xFFFFFFFF)
T1FE4 002:488.207 JLINK_ReadMemEx(0xFFFFFFFE, 0x2 Bytes, Flags = 0x02000000)
T1FE4 002:488.219   CPU_ReadMem(2 bytes @ 0xFFFFFFFE)
T1FE4 002:488.612   failed
T1FE4 002:488.628 - 0.423ms returns -1 (0xFFFFFFFF)
T1FE4 002:488.637 JLINK_ReadMemEx(0xFFFFFFFE, 0x2 Bytes, Flags = 0x02000000)
T1FE4 002:488.649   CPU_ReadMem(2 bytes @ 0xFFFFFFFE)
T1FE4 002:489.009   failed
T1FE4 002:489.023 - 0.388ms returns -1 (0xFFFFFFFF)
T1FE4 002:489.030 JLINK_ReadMemEx(0xFFFFFFFE, 0x2 Bytes, Flags = 0x02000000)
T1FE4 002:489.041   CPU_ReadMem(2 bytes @ 0xFFFFFFFE)
T1FE4 002:489.416   failed
T1FE4 002:489.429 - 0.400ms returns -1 (0xFFFFFFFF)
T1FE4 002:489.436 JLINK_ReadMemEx(0xFFFFFFFE, 0x2 Bytes, Flags = 0x02000000)
T1FE4 002:489.445   CPU_ReadMem(2 bytes @ 0xFFFFFFFE)
T1FE4 002:489.818   failed
T1FE4 002:489.826 - 0.392ms returns -1 (0xFFFFFFFF)
T1FE4 002:489.833 JLINK_ReadMemEx(0xFFFFFFFE, 0x1 Bytes, Flags = 0x02000000)
T1FE4 002:489.841   CPU_ReadMem(1 bytes @ 0xFFFFFFFE)
T1FE4 002:490.445   failed
T1FE4 002:490.486 - 0.656ms returns -1 (0xFFFFFFFF)
T1FE4 002:490.500 JLINK_HasError()
T1FE4 002:490.513 JLINK_SetBPEx(Addr = 0x0800F784, Type = 0xFFFFFFF2)
T1FE4 002:490.537 - 0.032ms returns 0x00000001
T1FE4 002:490.552 JLINK_HasError()
T1FE4 002:490.569 JLINK_HasError()
T1FE4 002:490.593 JLINK_Go()
T1FE4 002:490.647   CPU_WriteMem(4 bytes @ 0xE0002000)
T1FE4 002:491.147   CPU_ReadMem(4 bytes @ 0xE0001000)
T1FE4 002:491.670   CPU_WriteMem(4 bytes @ 0xE0002008)
T1FE4 002:491.750   CPU_WriteMem(4 bytes @ 0xE000200C)
T1FE4 002:491.769   CPU_WriteMem(4 bytes @ 0xE0002010)
T1FE4 002:491.785   CPU_WriteMem(4 bytes @ 0xE0002014)
T1FE4 002:491.804   CPU_WriteMem(4 bytes @ 0xE0002018)
T1FE4 002:491.821   CPU_WriteMem(4 bytes @ 0xE000201C)
T1FE4 002:493.426   CPU_WriteMem(4 bytes @ 0xE0001004)
T1FE4 002:494.223 - 3.649ms
T1FE4 002:594.423 JLINK_HasError()
T1FE4 002:594.443 JLINK_IsHalted()
T1FE4 002:598.211 - 3.783ms returns TRUE
T1FE4 002:598.239 JLINK_HasError()
T1FE4 002:598.304 JLINK_Halt()
T1FE4 002:598.315 - 0.013ms returns 0x00
T1FE4 002:598.321 JLINK_IsHalted()
T1FE4 002:598.327 - 0.007ms returns TRUE
T1FE4 002:598.333 JLINK_IsHalted()
T1FE4 002:598.337 - 0.005ms returns TRUE
T1FE4 002:598.342 JLINK_IsHalted()
T1FE4 002:598.345 - 0.005ms returns TRUE
T1FE4 002:598.351 JLINK_HasError()
T1FE4 002:598.357 JLINK_ReadReg(R15 (PC))
T1FE4 002:598.367 - 0.013ms returns 0xFFFFFFFE
T1FE4 002:598.375 JLINK_ReadReg(XPSR)
T1FE4 002:598.380 - 0.007ms returns 0x01000003
T1FE4 002:598.392 JLINK_HasError()
T1FE4 002:598.398 JLINK_ClrBPEx(BPHandle = 0x00000001)
T1FE4 002:598.404 - 0.007ms returns 0x00
T1FE4 002:598.409 JLINK_HasError()
T1FE4 002:598.420 JLINK_HasError()
T1FE4 002:598.430 JLINK_ReadMemU32(0xE000ED30, 0x1 Items)
T1FE4 002:598.442   CPU_ReadMem(4 bytes @ 0xE000ED30)
T1FE4 002:599.056   Data:  01 00 00 00
T1FE4 002:599.076 - 0.648ms returns 1 (0x1)
T1FE4 002:599.085 JLINK_ReadMemU32(0xE0001028, 0x1 Items)
T1FE4 002:599.100   CPU_ReadMem(4 bytes @ 0xE0001028)
T1FE4 002:599.595   Data:  00 00 00 00
T1FE4 002:599.614   Debug reg: DWT_FUNC[0]
T1FE4 002:599.620 - 0.536ms returns 1 (0x1)
T1FE4 002:599.630 JLINK_ReadMemU32(0xE0001038, 0x1 Items)
T1FE4 002:599.645   CPU_ReadMem(4 bytes @ 0xE0001038)
T1FE4 002:600.054   Data:  00 02 00 00
T1FE4 002:600.083   Debug reg: DWT_FUNC[1]
T1FE4 002:600.089 - 0.461ms returns 1 (0x1)
T1FE4 002:600.098 JLINK_ReadMemU32(0xE0001048, 0x1 Items)
T1FE4 002:600.111   CPU_ReadMem(4 bytes @ 0xE0001048)
T1FE4 002:600.611   Data:  00 00 00 00
T1FE4 002:600.630   Debug reg: DWT_FUNC[2]
T1FE4 002:600.636 - 0.540ms returns 1 (0x1)
T1FE4 002:600.646 JLINK_ReadMemU32(0xE0001058, 0x1 Items)
T1FE4 002:600.660   CPU_ReadMem(4 bytes @ 0xE0001058)
T1FE4 002:601.266   Data:  00 00 00 00
T1FE4 002:601.286   Debug reg: DWT_FUNC[3]
T1FE4 002:601.292 - 0.648ms returns 1 (0x1)
T1FE4 002:601.359 JLINK_HasError()
T1FE4 002:601.369 JLINK_ReadReg(R0)
T1FE4 002:601.378 - 0.011ms returns 0x00000000
T1FE4 002:601.384 JLINK_ReadReg(R1)
T1FE4 002:601.388 - 0.006ms returns 0x00000000
T1FE4 002:601.393 JLINK_ReadReg(R2)
T1FE4 002:601.397 - 0.006ms returns 0x00000000
T1FE4 002:601.401 JLINK_ReadReg(R3)
T1FE4 002:601.405 - 0.006ms returns 0x00000000
T1FE4 002:601.410 JLINK_ReadReg(R4)
T1FE4 002:601.414 - 0.005ms returns 0x00000000
T1FE4 002:601.419 JLINK_ReadReg(R5)
T1FE4 002:601.423 - 0.006ms returns 0x00000000
T1FE4 002:601.428 JLINK_ReadReg(R6)
T1FE4 002:601.432 - 0.005ms returns 0x00000000
T1FE4 002:601.436 JLINK_ReadReg(R7)
T1FE4 002:601.440 - 0.006ms returns 0x00000000
T1FE4 002:601.445 JLINK_ReadReg(R8)
T1FE4 002:601.449 - 0.006ms returns 0x00000000
T1FE4 002:601.454 JLINK_ReadReg(R9)
T1FE4 002:601.458 - 0.006ms returns 0x00000000
T1FE4 002:601.462 JLINK_ReadReg(R10)
T1FE4 002:601.466 - 0.006ms returns 0x00000000
T1FE4 002:601.471 JLINK_ReadReg(R11)
T1FE4 002:601.475 - 0.005ms returns 0x00000000
T1FE4 002:601.480 JLINK_ReadReg(R12)
T1FE4 002:601.484 - 0.005ms returns 0x00000000
T1FE4 002:601.488 JLINK_ReadReg(R13 (SP))
T1FE4 002:601.493 - 0.006ms returns 0xFFFFFFD8
T1FE4 002:601.497 JLINK_ReadReg(R14)
T1FE4 002:601.501 - 0.006ms returns 0xFFFFFFF9
T1FE4 002:601.506 JLINK_ReadReg(R15 (PC))
T1FE4 002:601.510 - 0.006ms returns 0xFFFFFFFE
T1FE4 002:601.515 JLINK_ReadReg(XPSR)
T1FE4 002:601.519 - 0.006ms returns 0x01000003
T1FE4 002:601.524 JLINK_ReadReg(MSP)
T1FE4 002:601.528 - 0.005ms returns 0xFFFFFFD8
T1FE4 002:601.532 JLINK_ReadReg(PSP)
T1FE4 002:601.536 - 0.005ms returns 0x00000000
T1FE4 002:601.541 JLINK_ReadReg(CFBP)
T1FE4 002:601.545 - 0.006ms returns 0x00000000
T1FE4 002:601.550 JLINK_ReadReg(FPSCR)
T1FE4 002:606.959 - 5.420ms returns 0x00000000
T1FE4 002:606.976 JLINK_ReadReg(FPS0)
T1FE4 002:606.984 - 0.009ms returns 0x00000000
T1FE4 002:606.989 JLINK_ReadReg(FPS1)
T1FE4 002:606.993 - 0.006ms returns 0x00000000
T1FE4 002:606.998 JLINK_ReadReg(FPS2)
T1FE4 002:607.002 - 0.006ms returns 0x00000000
T1FE4 002:607.006 JLINK_ReadReg(FPS3)
T1FE4 002:607.011 - 0.006ms returns 0x00000000
T1FE4 002:607.015 JLINK_ReadReg(FPS4)
T1FE4 002:607.019 - 0.006ms returns 0x00000000
T1FE4 002:607.024 JLINK_ReadReg(FPS5)
T1FE4 002:607.028 - 0.006ms returns 0x00000000
T1FE4 002:607.033 JLINK_ReadReg(FPS6)
T1FE4 002:607.036 - 0.005ms returns 0x00000000
T1FE4 002:607.041 JLINK_ReadReg(FPS7)
T1FE4 002:607.045 - 0.005ms returns 0x00000000
T1FE4 002:607.050 JLINK_ReadReg(FPS8)
T1FE4 002:607.054 - 0.005ms returns 0x00000000
T1FE4 002:607.058 JLINK_ReadReg(FPS9)
T1FE4 002:607.062 - 0.006ms returns 0x00000000
T1FE4 002:607.067 JLINK_ReadReg(FPS10)
T1FE4 002:607.071 - 0.006ms returns 0x00000000
T1FE4 002:607.076 JLINK_ReadReg(FPS11)
T1FE4 002:607.080 - 0.006ms returns 0x00000000
T1FE4 002:607.088 JLINK_ReadReg(FPS12)
T1FE4 002:607.095 - 0.008ms returns 0x00000000
T1FE4 002:607.100 JLINK_ReadReg(FPS13)
T1FE4 002:607.104 - 0.006ms returns 0x00000000
T1FE4 002:607.108 JLINK_ReadReg(FPS14)
T1FE4 002:607.112 - 0.005ms returns 0x00000000
T1FE4 002:607.117 JLINK_ReadReg(FPS15)
T1FE4 002:607.121 - 0.005ms returns 0x00000000
T1FE4 002:607.126 JLINK_ReadReg(FPS16)
T1FE4 002:607.130 - 0.005ms returns 0x00000000
T1FE4 002:607.134 JLINK_ReadReg(FPS17)
T1FE4 002:607.138 - 0.005ms returns 0x00000000
T1FE4 002:607.143 JLINK_ReadReg(FPS18)
T1FE4 002:607.147 - 0.006ms returns 0x00000000
T1FE4 002:607.152 JLINK_ReadReg(FPS19)
T1FE4 002:607.156 - 0.006ms returns 0x00000000
T1FE4 002:607.160 JLINK_ReadReg(FPS20)
T1FE4 002:607.164 - 0.005ms returns 0x00000000
T1FE4 002:607.169 JLINK_ReadReg(FPS21)
T1FE4 002:607.173 - 0.006ms returns 0x00000000
T1FE4 002:607.178 JLINK_ReadReg(FPS22)
T1FE4 002:607.182 - 0.005ms returns 0x00000000
T1FE4 002:607.186 JLINK_ReadReg(FPS23)
T1FE4 002:607.190 - 0.005ms returns 0x00000000
T1FE4 002:607.195 JLINK_ReadReg(FPS24)
T1FE4 002:607.199 - 0.005ms returns 0x00000000
T1FE4 002:607.203 JLINK_ReadReg(FPS25)
T1FE4 002:607.207 - 0.005ms returns 0x00000000
T1FE4 002:607.212 JLINK_ReadReg(FPS26)
T1FE4 002:607.216 - 0.006ms returns 0x00000000
T1FE4 002:607.221 JLINK_ReadReg(FPS27)
T1FE4 002:607.225 - 0.006ms returns 0x00000000
T1FE4 002:607.229 JLINK_ReadReg(FPS28)
T1FE4 002:607.233 - 0.005ms returns 0x00000000
T1FE4 002:607.238 JLINK_ReadReg(FPS29)
T1FE4 002:607.242 - 0.005ms returns 0x00000000
T1FE4 002:607.247 JLINK_ReadReg(FPS30)
T1FE4 002:607.251 - 0.006ms returns 0x00000000
T1FE4 002:607.255 JLINK_ReadReg(FPS31)
T1FE4 002:607.259 - 0.007ms returns 0x00000000
T43E0 002:607.738 JLINK_ReadMemEx(0xE000ED28, 0x4 Bytes, Flags = 0x02000000)
T43E0 002:607.757   CPU_ReadMem(4 bytes @ 0xE000ED28)
T43E0 002:608.098   Data:  01 10 00 00
T43E0 002:608.104 - 0.368ms returns 4 (0x4)
T43E0 002:608.112 JLINK_ReadMemEx(0xFFFFFFEC, 0x4 Bytes, Flags = 0x02000000)
T43E0 002:608.121   CPU_ReadMem(64 bytes @ 0xFFFFFFC0)
T43E0 002:608.634   CPU_ReadMem(4 bytes @ 0xFFFFFFEC)
T43E0 002:609.060   failed
T43E0 002:609.067 - 0.957ms returns -1 (0xFFFFFFFF)
T43E0 002:609.073 JLINK_ReadMemEx(0xFFFFFFEC, 0x4 Bytes, Flags = 0x02000000)
T43E0 002:609.080   CPU_ReadMem(64 bytes @ 0xFFFFFFC0)
T43E0 002:609.583   CPU_ReadMem(4 bytes @ 0xFFFFFFEC)
T43E0 002:609.987   failed
T43E0 002:610.004 - 0.933ms returns -1 (0xFFFFFFFF)
T43E0 002:610.013 JLINK_ReadMemEx(0xFFFFFFEC, 0x4 Bytes, Flags = 0x02000000)
T43E0 002:610.028   CPU_ReadMem(64 bytes @ 0xFFFFFFC0)
T43E0 002:610.539   CPU_ReadMem(4 bytes @ 0xFFFFFFEC)
T43E0 002:610.983   failed
T43E0 002:610.989 - 0.978ms returns -1 (0xFFFFFFFF)
T43E0 002:610.996 JLINK_ReadMemEx(0xFFFFFFEC, 0x4 Bytes, Flags = 0x02000000)
T43E0 002:611.003   CPU_ReadMem(64 bytes @ 0xFFFFFFC0)
T43E0 002:611.446   CPU_ReadMem(4 bytes @ 0xFFFFFFEC)
T43E0 002:611.930   failed
T43E0 002:611.936 - 0.942ms returns -1 (0xFFFFFFFF)
T43E0 002:611.942 JLINK_ReadMemEx(0xFFFFFFEC, 0x2 Bytes, Flags = 0x02000000)
T43E0 002:611.949   CPU_ReadMem(64 bytes @ 0xFFFFFFC0)
T43E0 002:612.482   CPU_ReadMem(2 bytes @ 0xFFFFFFEC)
T43E0 002:612.845   failed
T43E0 002:612.852 - 0.911ms returns -1 (0xFFFFFFFF)
T43E0 002:612.857 JLINK_ReadMemEx(0xFFFFFFEC, 0x1 Bytes, Flags = 0x02000000)
T43E0 002:612.864   CPU_ReadMem(64 bytes @ 0xFFFFFFC0)
T43E0 002:613.388   CPU_ReadMem(1 bytes @ 0xFFFFFFEC)
T43E0 002:613.748   failed
T43E0 002:613.754 - 0.899ms returns -1 (0xFFFFFFFF)
T43E0 002:613.763 JLINK_ReadMemEx(0xFFFFFFF0, 0x4 Bytes, Flags = 0x02000000)
T43E0 002:613.769   CPU_ReadMem(64 bytes @ 0xFFFFFFC0)
T43E0 002:614.301   CPU_ReadMem(4 bytes @ 0xFFFFFFF0)
T43E0 002:614.707   failed
T43E0 002:614.713 - 0.952ms returns -1 (0xFFFFFFFF)
T43E0 002:614.719 JLINK_ReadMemEx(0xFFFFFFF0, 0x4 Bytes, Flags = 0x02000000)
T43E0 002:614.725   CPU_ReadMem(64 bytes @ 0xFFFFFFC0)
T43E0 002:615.162   CPU_ReadMem(4 bytes @ 0xFFFFFFF0)
T43E0 002:615.571   failed
T43E0 002:615.578 - 0.864ms returns -1 (0xFFFFFFFF)
T43E0 002:615.589 JLINK_ReadMemEx(0xFFFFFFF0, 0x4 Bytes, Flags = 0x02000000)
T43E0 002:615.596   CPU_ReadMem(64 bytes @ 0xFFFFFFC0)
T43E0 002:616.124   CPU_ReadMem(4 bytes @ 0xFFFFFFF0)
T43E0 002:616.511   failed
T43E0 002:616.518 - 0.930ms returns -1 (0xFFFFFFFF)
T43E0 002:616.524 JLINK_ReadMemEx(0xFFFFFFF0, 0x4 Bytes, Flags = 0x02000000)
T43E0 002:616.531   CPU_ReadMem(64 bytes @ 0xFFFFFFC0)
T43E0 002:617.199   CPU_ReadMem(4 bytes @ 0xFFFFFFF0)
T43E0 002:617.606   failed
T43E0 002:617.617 - 1.095ms returns -1 (0xFFFFFFFF)
T43E0 002:617.624 JLINK_ReadMemEx(0xFFFFFFF0, 0x2 Bytes, Flags = 0x02000000)
T43E0 002:617.634   CPU_ReadMem(64 bytes @ 0xFFFFFFC0)
T43E0 002:618.182   CPU_ReadMem(2 bytes @ 0xFFFFFFF0)
T43E0 002:618.559   failed
T43E0 002:618.579 - 0.957ms returns -1 (0xFFFFFFFF)
T43E0 002:618.589 JLINK_ReadMemEx(0xFFFFFFF0, 0x1 Bytes, Flags = 0x02000000)
T43E0 002:618.607   CPU_ReadMem(64 bytes @ 0xFFFFFFC0)
T43E0 002:619.069   CPU_ReadMem(1 bytes @ 0xFFFFFFF0)
T43E0 002:619.446   failed
T43E0 002:619.454 - 0.867ms returns -1 (0xFFFFFFFF)
T43E0 002:619.465 JLINK_ReadMemEx(0xFFFFFFF4, 0x4 Bytes, Flags = 0x02000000)
T43E0 002:619.476   CPU_ReadMem(64 bytes @ 0xFFFFFFC0)
T43E0 002:619.980   CPU_ReadMem(4 bytes @ 0xFFFFFFF4)
T43E0 002:620.421   failed
T43E0 002:620.432 - 0.970ms returns -1 (0xFFFFFFFF)
T43E0 002:620.445 JLINK_ReadMemEx(0xFFFFFFF4, 0x4 Bytes, Flags = 0x02000000)
T43E0 002:620.462   CPU_ReadMem(64 bytes @ 0xFFFFFFC0)
T43E0 002:621.098   CPU_ReadMem(4 bytes @ 0xFFFFFFF4)
T43E0 002:621.528   failed
T43E0 002:621.538 - 1.095ms returns -1 (0xFFFFFFFF)
T43E0 002:621.544 JLINK_ReadMemEx(0xFFFFFFF4, 0x4 Bytes, Flags = 0x02000000)
T43E0 002:621.554   CPU_ReadMem(64 bytes @ 0xFFFFFFC0)
T43E0 002:622.132   CPU_ReadMem(4 bytes @ 0xFFFFFFF4)
T43E0 002:622.529   failed
T43E0 002:622.538 - 0.995ms returns -1 (0xFFFFFFFF)
T43E0 002:622.544 JLINK_ReadMemEx(0xFFFFFFF4, 0x4 Bytes, Flags = 0x02000000)
T43E0 002:622.554   CPU_ReadMem(64 bytes @ 0xFFFFFFC0)
T43E0 002:623.128   CPU_ReadMem(4 bytes @ 0xFFFFFFF4)
T43E0 002:623.527   failed
T43E0 002:623.543 - 1.000ms returns -1 (0xFFFFFFFF)
T43E0 002:623.553 JLINK_ReadMemEx(0xFFFFFFF4, 0x2 Bytes, Flags = 0x02000000)
T43E0 002:623.564   CPU_ReadMem(64 bytes @ 0xFFFFFFC0)
T43E0 002:624.138   CPU_ReadMem(2 bytes @ 0xFFFFFFF4)
T43E0 002:624.634   failed
T43E0 002:624.644 - 1.093ms returns -1 (0xFFFFFFFF)
T43E0 002:624.653 JLINK_ReadMemEx(0xFFFFFFF4, 0x1 Bytes, Flags = 0x02000000)
T43E0 002:624.665   CPU_ReadMem(64 bytes @ 0xFFFFFFC0)
T43E0 002:625.153   CPU_ReadMem(1 bytes @ 0xFFFFFFF4)
T43E0 002:625.552   failed
T43E0 002:625.561 - 0.910ms returns -1 (0xFFFFFFFF)
T43E0 002:625.710 JLINK_ReadMemEx(0xFFFFFFEC, 0x4 Bytes, Flags = 0x02000000)
T43E0 002:625.725   CPU_ReadMem(64 bytes @ 0xFFFFFFC0)
T43E0 002:626.227   CPU_ReadMem(4 bytes @ 0xFFFFFFEC)
T43E0 002:626.662   failed
T43E0 002:626.670 - 0.961ms returns -1 (0xFFFFFFFF)
T43E0 002:626.676 JLINK_ReadMemEx(0xFFFFFFEC, 0x4 Bytes, Flags = 0x02000000)
T43E0 002:626.683   CPU_ReadMem(64 bytes @ 0xFFFFFFC0)
T43E0 002:627.153   CPU_ReadMem(4 bytes @ 0xFFFFFFEC)
T43E0 002:627.571   failed
T43E0 002:627.577 - 0.903ms returns -1 (0xFFFFFFFF)
T43E0 002:627.583 JLINK_ReadMemEx(0xFFFFFFEC, 0x4 Bytes, Flags = 0x02000000)
T43E0 002:627.589   CPU_ReadMem(64 bytes @ 0xFFFFFFC0)
T43E0 002:628.155   CPU_ReadMem(4 bytes @ 0xFFFFFFEC)
T43E0 002:628.549   failed
T43E0 002:628.560 - 0.979ms returns -1 (0xFFFFFFFF)
T43E0 002:628.566 JLINK_ReadMemEx(0xFFFFFFEC, 0x4 Bytes, Flags = 0x02000000)
T43E0 002:628.576   CPU_ReadMem(64 bytes @ 0xFFFFFFC0)
T43E0 002:629.132   CPU_ReadMem(4 bytes @ 0xFFFFFFEC)
T43E0 002:629.529   failed
T43E0 002:629.536 - 0.971ms returns -1 (0xFFFFFFFF)
T43E0 002:629.541 JLINK_ReadMemEx(0xFFFFFFEC, 0x2 Bytes, Flags = 0x02000000)
T43E0 002:629.548   CPU_ReadMem(64 bytes @ 0xFFFFFFC0)
T43E0 002:630.037   CPU_ReadMem(2 bytes @ 0xFFFFFFEC)
T43E0 002:630.402   failed
T43E0 002:630.408 - 0.868ms returns -1 (0xFFFFFFFF)
T43E0 002:630.414 JLINK_ReadMemEx(0xFFFFFFEC, 0x1 Bytes, Flags = 0x02000000)
T43E0 002:630.426   CPU_ReadMem(64 bytes @ 0xFFFFFFC0)
T43E0 002:630.931   CPU_ReadMem(1 bytes @ 0xFFFFFFEC)
T43E0 002:631.290   failed
T43E0 002:631.296 - 0.884ms returns -1 (0xFFFFFFFF)
T43E0 002:632.481 JLINK_ReadMemEx(0x20002048, 0x4 Bytes, Flags = 0x02000000)
T43E0 002:632.510   CPU_ReadMem(64 bytes @ 0x20002040)
T43E0 002:633.261    -- Updating C cache (64 bytes @ 0x20002040)
T43E0 002:633.269    -- Read from C cache (4 bytes @ 0x20002048)
T43E0 002:633.275   Data:  00 00 00 00
T43E0 002:633.282 - 0.802ms returns 4 (0x4)
T43E0 002:633.674 JLINK_ReadMemEx(0x20000C78, 0x1 Bytes, Flags = 0x02000000)
T43E0 002:633.688   CPU_ReadMem(64 bytes @ 0x20000C40)
T43E0 002:634.492    -- Updating C cache (64 bytes @ 0x20000C40)
T43E0 002:634.505    -- Read from C cache (1 bytes @ 0x20000C78)
T43E0 002:634.513   Data:  00
T43E0 002:634.520 - 0.849ms returns 1 (0x1)
T43E0 002:635.248 JLINK_ReadMemEx(0x200021D0, 0x2 Bytes, Flags = 0x02000000)
T43E0 002:635.280   CPU_ReadMem(64 bytes @ 0x200021C0)
T43E0 002:636.039    -- Updating C cache (64 bytes @ 0x200021C0)
T43E0 002:636.048    -- Read from C cache (2 bytes @ 0x200021D0)
T43E0 002:636.054   Data:  22 00
T43E0 002:636.060 - 0.814ms returns 2 (0x2)
T43E0 002:636.295 JLINK_ReadMemEx(0x40012C00, 0x10 Bytes, Flags = 0x02000004)
T43E0 002:636.311   CPU_ReadMem(16 bytes @ 0x40012C00)
T43E0 002:636.762   Data:  00 00 00 00 00 00 00 00 00 00 00 00 00 00 00 00
T43E0 002:636.773 - 0.480ms returns 16 (0x10)
T43E0 002:636.783 JLINK_ReadMemEx(0x40012C10, 0x4 Bytes, Flags = 0x02000004)
T43E0 002:636.794   CPU_ReadMem(4 bytes @ 0x40012C10)
T43E0 002:637.118   Data:  00 00 00 00
T43E0 002:637.128 - 0.346ms returns 4 (0x4)
